Circuit: ** ISIM 4 - circuit **

Direct Newton iteration for .op point skipped.
Gmin stepping method for .op point skipped.
Starting source stepping with srcstepmethod=0
Source Step = 3.0303%
Source Step = 33.3333%
Source Step = 63.6364%
Source Step = 93.9394%
Source stepping succeeded in finding the operating point.

Semiconductor Device Operating Points:
                        --- Diodes ---
Name:    d:u2:p      d:u2:ln     d:u2:lp     d:u2:e      d:u2:c
Model:    u2:dx       u2:dx       u2:dx       u2:dx       u2:dx
Id:     -1.70e-11   -2.58e-11   -2.42e-11   -1.32e-11    3.99e-05
Vd:     -1.70e+01   -2.58e+01   -2.42e+01   -1.32e+01    6.37e-01
Req:     1.00e+12    1.00e+12    1.00e+12    1.00e+12    6.48e+02
CAP:     0.00e+00    0.00e+00    0.00e+00    0.00e+00    0.00e+00

Name:    d:u4:p      d:u4:ln     d:u4:lp     d:u4:e      d:u4:c
Model:    u4:dx       u4:dx       u4:dx       u4:dx       u4:dx
Id:     -1.70e-11    2.08e-05   -5.06e-11   -1.97e-12   -1.06e-11
Vd:     -1.70e+01    6.20e-01   -5.06e+01   -1.97e+00   -1.06e+01
Req:     1.00e+12    1.25e+03    1.00e+12    1.00e+12    1.00e+12
CAP:     0.00e+00    0.00e+00    0.00e+00    0.00e+00    0.00e+00

                        --- Bipolar Transistors ---
Name:          qq2                qq11                 qq3                  qdut
Model:  qbd135__bjt_npn__1 qbd135__bjt_npn__1 q2n3906/on__bjt_pnp__1 2n3906__bjt_pnp__1
Ib:          7.53e-04          -1.40e-11            -2.56e-02            -7.90e-02
Ic:          8.84e-02           1.30e-11            -5.34e-02            -9.66e-03
Vbe:         7.39e-01          -9.69e-01            -9.69e-01            -1.66e+00
Vbc:        -1.56e+00          -1.28e+01            -8.34e-01            -1.62e+00
Vce:         2.30e+00           1.19e+01            -1.35e-01            -3.97e-02
BetaDC:      1.17e+02          -9.28e-01             2.08e+00             1.22e-01
Gm:          3.28e+00           7.39e-29             1.38e+00             1.91e+00
Rpi:         3.40e+01           1.00e+12             2.51e+01             6.85e+00
Rx:          5.00e-01           5.00e-01             4.70e+00             1.00e+01
Ro:          2.51e+03           0.00e+00             5.19e+00             2.51e-01
Cbe:         2.63e-09           9.27e-11             1.60e-09             5.55e-09
Cbc:         1.70e-11           7.61e-12             2.42e-07             4.84e-07
Cjs:         0.00e+00           0.00e+00             0.00e+00             0.00e+00
BetaAC:      1.12e+02           7.39e-17             3.48e+01             1.31e+01
Cbx:         0.00e+00           0.00e+00             1.67e-12             0.00e+00
Ft:          1.97e+08           1.59e-03             9.05e+05             6.20e+05

                        --- JFET Transistors ---
Name:    j:u2:2      j:u2:1      j:u4:2      j:u4:1
Model:    u2:jx       u2:jx       u4:jx       u4:jx
Id:     -7.58e-05   -1.18e-04   -1.10e-04   -8.83e-05
Vgs:     4.70e-01    3.39e-01    3.61e-01    4.28e-01
Vds:    -9.24e+00   -9.09e+00   -4.25e+00   -4.33e+00
Gm:      2.86e-04    3.57e-04    3.45e-04    3.09e-04
Gds:     0.00e+00    0.00e+00    0.00e+00    0.00e+00
Cgs:     0.00e+00    0.00e+00    0.00e+00    0.00e+00
Cgd:     0.00e+00    0.00e+00    0.00e+00    0.00e+00



Date: Wed May 17 19:29:42 2023
Total elapsed time: 0.036 seconds.

tnom = 27
temp = 27
method = trap
totiter = 176
traniter = 0
tranpoints = 0
accept = 0
rejected = 0
matrix size = 119
fillins = 221
solver = Normal

