Title: ** ISIM 4 - circuit **
Date: Wed May 17 19:29:42 2023
Plotname: Operating Point
Flags: real
No. Variables: 25
No. Points:            1
Offset:   0.0000000000000000e+000
Command: Linear Technology Corporation LTspice XVII
Variables:
	0	V(vdac0)	voltage
	1	V(collector)	voltage
	2	V(base)	voltage
	3	V(emitter)	voltage
	4	V(vdac1)	voltage
	5	V(cres10)	voltage
	6	V(cres1k)	voltage
	7	V(cres10div)	voltage
	8	V(cres1kdiv)	voltage
	9	V(collectordiv)	voltage
	10	V(bres100div)	voltage
	11	V(basediv)	voltage
	12	V(dac0mult)	voltage
	13	V(emitterdiv)	voltage
	14	V(dac0multtocollectorwire)	voltage
	15	V(dac0multtoemitterwire)	voltage
	16	V(cresexhaust)	voltage
	17	Ie(Qq2)	device_current
	18	I(Rrb100)	device_current
	19	I(Rrc1k)	device_current
	20	I(Rrc10e)	device_current
	21	I(Rrc10d)	device_current
	22	I(Rrc10c)	device_current
	23	I(Rrc10b)	device_current
	24	I(Rrc10a)	device_current
Values:
0		4.980464000000000e+000
	9.657910550479018e+000
	8.033191190855041e+000
	9.697586351677757e+000
	0.000000000000000e+000
	9.657910026890530e+000
	1.931568048406890e-005
	2.414578315701301e+000
	1.298276102255491e-004
	2.414578446597111e+000
	3.386194344161280e-002
	2.008402676057157e+000
	9.697763632711938e+000
	2.424497297522491e+000
	4.848886645276093e+000
	9.697674992194848e+000
	9.657840249287840e-006
	-8.912540529850418e-002
	-7.898242060036945e-002
	-9.657891234798533e-003
	-1.026644094356114e-008
	-1.026644094356114e-008
	-1.026644094356114e-008
	-1.026644094356114e-008
	-1.026644094356114e-008
