Circuit: ** ISIM 4 - circuit **

Direct Newton iteration for .op point skipped.
Gmin stepping method for .op point skipped.
Starting source stepping with srcstepmethod=0
Source Step = 3.0303%
Source Step = 33.3333%
Source Step = 63.6364%
Source Step = 93.9394%
Source stepping succeeded in finding the operating point.

Semiconductor Device Operating Points:
                        --- Diodes ---
Name:    d:u2:p      d:u2:ln     d:u2:lp     d:u2:e      d:u2:c
Model:    u2:dx       u2:dx       u2:dx       u2:dx       u2:dx
Id:     -1.70e-11   -2.63e-11   -2.37e-11   -1.32e-11    4.81e-05
Vd:     -1.70e+01   -2.63e+01   -2.37e+01   -1.32e+01    6.42e-01
Req:     1.00e+12    1.00e+12    1.00e+12    1.00e+12    5.38e+02
CAP:     0.00e+00    0.00e+00    0.00e+00    0.00e+00    0.00e+00

Name:    d:u4:p      d:u4:ln     d:u4:lp     d:u4:e      d:u4:c
Model:    u4:dx       u4:dx       u4:dx       u4:dx       u4:dx
Id:     -1.70e-11   -2.50e-11   -2.50e-11   -1.07e-11   -1.89e-12
Vd:     -1.70e+01   -2.50e+01   -2.50e+01   -1.07e+01   -1.89e+00
Req:     1.00e+12    1.00e+12    1.00e+12    1.00e+12    1.00e+12
CAP:     0.00e+00    0.00e+00    0.00e+00    0.00e+00    0.00e+00

Name:   d:dut:bd
Model:   dut:dbd
Id:      0.00e+00
Vd:     -8.26e+00
Req:     1.00e+12
CAP:     5.02e-12

                        --- Bipolar Transistors ---
Name:          qq2                qq11                 qq3
Model:  qbd135__bjt_npn__1 qbd135__bjt_npn__1 q2n3906/on__bjt_pnp__1
Ib:          1.21e-03           2.91e-06             7.77e-10
Ic:          1.38e-01           3.63e-04            -7.74e-10
Vbe:         7.60e-01           5.82e-01             5.82e-01
Vbc:        -1.56e+00          -4.09e+00             7.91e+00
Vce:         2.32e+00           4.67e+00            -7.33e+00
BetaDC:      1.14e+02           1.25e+02            -9.97e-01
Gm:          5.00e+00           1.42e-02             1.55e-17
Rpi:         2.11e+01           8.81e+03             1.00e+12
Rx:          5.00e-01           5.00e-01             6.49e+00
Ro:          1.60e+03           6.18e+05             3.28e+20
Cbe:         4.04e-09           2.25e-10             4.89e-12
Cbc:         1.71e-11           1.21e-11             2.64e-12
Cjs:         0.00e+00           0.00e+00             0.00e+00
BetaAC:      1.06e+02           1.25e+02             1.55e-05
Cbx:         0.00e+00           0.00e+00             2.94e-13
Ft:          1.96e+08           9.52e+06             2.03e-02

                        --- JFET Transistors ---
Name:    j:u2:2      j:u2:1      j:u4:2      j:u4:1
Model:    u2:jx       u2:jx       u4:jx       u4:jx
Id:     -7.15e-05   -1.23e-04   -9.76e-05   -9.76e-05
Vgs:     4.86e-01    3.26e-01    3.99e-01    3.99e-01
Vds:    -9.26e+00   -9.08e+00   -7.92e+00   -7.92e+00
Gm:      2.78e-04    3.64e-04    3.25e-04    3.25e-04
Gds:     0.00e+00    0.00e+00    0.00e+00    0.00e+00
Cgs:     0.00e+00    0.00e+00    0.00e+00    0.00e+00
Cgd:     0.00e+00    0.00e+00    0.00e+00    0.00e+00

                        --- MOSFET Transistors ---
Name:        m:dut:1
Model:      dut:mint
Id:         -1.39e-01
Vgs:        -2.35e+00
Vds:        -7.94e+00
Vbs:         0.00e+00
Vth:        -1.34e+00
Vdsat:      -5.66e-01
Gm:          1.58e-01
Gds:         6.74e-02
Gmb:        -0.00e+00
Cbd:         0.00e+00
Cbs:         0.00e+00
Cgsov:       0.00e+00
Cgdov:       0.00e+00
Cgbov:       0.00e+00
Cgs:         2.30e-12
Cgd:         0.00e+00
Cgb:         0.00e+00



Date: Tue May 16 17:41:44 2023
Total elapsed time: 0.030 seconds.

tnom = 27
temp = 27
method = trap
totiter = 173
traniter = 0
tranpoints = 0
accept = 0
rejected = 0
matrix size = 133
fillins = 240
solver = Normal

